Time [s],Packet ID,Address,Data,Read/Write,ACK/NAK
1.396227940000000,1,N,'0',Write,ACK
1.496450310000000,2,N,4,Write,ACK
1.496679830000000,3,N,0,Write,ACK
1.501438270000000,4,N,4,Write,ACK
1.501667660000000,5,N,0,Write,ACK
1.502052140000000,6,N,4,Write,ACK
1.502281520000000,7,N,0,Write,ACK
1.502670870000000,8,N,$,Write,ACK
1.502900260000000,9,N,' ',Write,ACK
1.503284610000000,10,N,$,Write,ACK
1.503514000000000,11,N,' ',Write,ACK
1.503748450000000,12,N,'132',Write,ACK
1.503977830000000,13,N,'128',Write,ACK
1.504272210000000,14,N,'4',Write,ACK
1.504501600000000,15,N,'0',Write,ACK
1.504736040000000,16,N,'196',Write,ACK
1.504965560000000,17,N,'192',Write,ACK
1.505199940000000,18,N,'4',Write,ACK
1.505429330000000,19,N,'0',Write,ACK
1.505663770000000,20,N,'20',Write,ACK
1.505893160000000,21,N,'16',Write,ACK
1.508142160000000,22,N,'4',Write,ACK
1.508371670000000,23,N,'0',Write,ACK
1.508606120000000,24,N,d,Write,ACK
1.508835640000000,25,N,`,Write,ACK
1.509070080000000,26,N,'0',Write,ACK
1.509299530000000,27,N,'8',Write,ACK
3.509102010000000,28,N,'12',Write,ACK
3.509331520000000,29,N,'8',Write,ACK
3.509566030000000,30,N,COMMA,Write,ACK
3.509795540000000,31,N,(,Write,ACK
3.512049600000000,32,N,-,Write,ACK
3.512278930000000,33,N,),Write,NAK
3.512513440000000,34,N,\r,Write,NAK
3.512742950000000,36,N,\t,Write,Missing ACK/NAK
3.512982400000000,37,N,m,Write,NAK
3.513211910000000,38,N,i,Write,NAK
3.513446420000000,39,N,},Write,NAK
3.513675810000000,40,N,y,Write,NAK
3.513915250000000,41,N,m,Write,ACK
3.514144770000000,42,N,i,Write,NAK
3.514379280000000,43,N,'253',Write,NAK
3.514608790000000,44,N,'249',Write,NAK
3.514848180000000,45,N,},Write,ACK
3.515077560000000,46,N,y,Write,NAK
3.515316940000000,47,N,m,Write,ACK
3.515546330000000,49,N,i,Write,Missing ACK/NAK
3.515785720000000,50,N,},Write,NAK
3.516015100000000,51,N,y,Write,ACK
3.516249550000000,52,N,M,Write,NAK
3.516479060000000,53,N,I,Write,ACK
3.516718510000000,54,N,m,Write,NAK
3.516948020000000,55,N,i,Write,NAK
3.517182470000000,56,N,],Write,NAK
3.517411790000000,57,N,Y,Write,ACK
3.517651240000000,58,N,m,Write,NAK
3.517880750000000,59,N,i,Write,ACK
3.518115200000000,60,N,=,Write,NAK
3.518344710000000,61,N,9,Write,ACK
3.518584100000000,62,N,m,Write,NAK
3.518813480000000,63,N,i,Write,ACK
3.519047930000000,64,N,'141',Write,ACK
3.519277320000000,65,N,'137',Write,NAK
3.519516770000000,66,N,-,Write,NAK
3.519746280000000,67,N,),Write,NAK
3.519980790000000,68,N,\r,Write,NAK
3.520210300000000,69,N,\t,Write,NAK
3.520454370000000,70,N,m,Write,NAK
3.520683760000000,71,N,i,Write,NAK
3.520918210000000,72,N,=,Write,NAK
3.521147720000000,73,N,9,Write,NAK
3.521387100000000,75,N,},Write,Missing ACK/NAK
3.521616610000000,76,N,y,Write,ACK
3.521851070000000,77,N,M,Write,ACK
3.522080450000000,78,N,I,Write,NAK
3.522319900000000,79,N,m,Write,NAK
3.522549220000000,80,N,i,Write,NAK
3.522783670000000,81,N,m,Write,NAK
3.523013180000000,82,N,i,Write,NAK
3.523252630000000,83,N,-,Write,NAK
3.523487140000000,84,N,),Write,NAK
3.523721650000000,85,N,\r,Write,NAK
3.523951160000000,86,N,\t,Write,NAK
3.524195610000000,87,N,'204',Write,ACK
3.524425120000000,88,N,'200',Write,ACK
3.524659630000000,89,N,'12',Write,ACK
3.524889140000000,90,N,'8',Write,ACK
3.525133520000000,91,N,-,Write,NAK
3.525362910000000,92,N,),Write,NAK
3.525597360000000,93,N,\r,Write,NAK
3.525826750000000,94,N,\t,Write,NAK
3.526066130000000,95,N,},Write,NAK
3.526295520000000,96,N,y,Write,NAK
3.526529910000000,97,N,},Write,ACK
3.526759420000000,98,N,y,Write,NAK
3.526998860000000,100,N,m,Write,Missing ACK/NAK
3.527228380000000,101,N,i,Write,ACK
3.527462820000000,102,N,],Write,NAK
3.527692150000000,103,N,Y,Write,NAK
3.527931590000000,104,N,m,Write,ACK
3.528161110000000,105,N,i,Write,ACK
3.528395550000000,106,N,'205',Write,ACK
3.528630060000000,107,N,'201',Write,ACK
3.528869450000000,108,N,m,Write,NAK
3.529098840000000,109,N,i,Write,ACK
3.529333290000000,110,N,=,Write,ACK
3.529562800000000,111,N,9,Write,ACK
3.529802180000000,112,N,m,Write,NAK
3.530031570000000,113,N,i,Write,NAK
3.530266080000000,114,N,'253',Write,NAK
3.530495460000000,115,N,'249',Write,ACK
3.530734850000000,116,N,m,Write,NAK
3.530964240000000,117,N,i,Write,NAK
3.531198620000000,118,N,'221',Write,NAK
3.531428010000000,119,N,'217',Write,NAK
3.531667390000000,120,N,m,Write,NAK
3.531896780000000,121,N,i,Write,NAK
3.532131230000000,122,N,],Write,NAK
3.532360740000000,123,N,Y,Write,NAK
3.532600190000000,124,N,-,Write,NAK
3.532829700000000,125,N,),Write,NAK
3.533064210000000,126,N,\r,Write,NAK
3.533293720000000,127,N,\t,Write,NAK
3.533533100000000,128,N,},Write,ACK
3.533762620000000,129,N,y,Write,NAK
3.533997070000000,130,N,M,Write,ACK
3.534226450000000,131,N,I,Write,NAK
3.534465900000000,132,N,m,Write,NAK
3.534695410000000,133,N,i,Write,NAK
3.534929920000000,134,N,'253',Write,NAK
3.535159430000000,135,N,'249',Write,ACK
3.535398880000000,136,N,-,Write,NAK
3.535628270000000,137,N,),Write,NAK
3.535862710000000,138,N,\r,Write,ACK
3.536092100000000,139,N,\t,Write,NAK
3.536331550000000,140,N,m,Write,NAK
3.536561060000000,141,N,i,Write,NAK
3.536800440000000,142,N,'157',Write,NAK
3.537029830000000,144,N,'153',Write,Missing ACK/NAK
3.537269280000000,145,N,m,Write,NAK
3.537498790000000,146,N,i,Write,NAK
3.537733300000000,147,N,'253',Write,NAK
3.537962810000000,149,N,'249',Write,Missing ACK/NAK
3.538202200000000,150,N,},Write,NAK
3.538431590000000,151,N,y,Write,ACK
3.538666030000000,153,N,M,Write,Missing ACK/NAK
3.538895540000000,154,N,I,Write,ACK
3.539134990000000,156,N,-,Write,Missing ACK/NAK
3.539364380000000,157,N,),Write,NAK
3.539598890000000,158,N,\r,Write,NAK
3.539828400000000,159,N,\t,Write,NAK
5.539631070000000,160,N,'12',Write,ACK
5.539860460000000,161,N,'8',Write,ACK
5.540094960000000,162,N,'28',Write,ACK
5.540329480000000,163,N,'24',Write,ACK
5.542578540000000,164,N,'12',Write,ACK
5.542807930000000,165,N,'8',Write,ACK
5.543042440000000,166,N,COMMA,Write,ACK
5.543271950000000,167,N,(,Write,ACK
5.545525960000000,168,N,-,Write,ACK
5.545755340000000,169,N,),Write,NAK
5.545989850000000,170,N,\r,Write,NAK
5.546219360000000,171,N,\t,Write,ACK
5.546463870000000,172,N,},Write,NAK
5.546693260000000,173,N,y,Write,NAK
5.546927710000000,174,N,],Write,NAK
5.547157220000000,175,N,Y,Write,NAK
5.547396610000000,177,N,},Write,Missing ACK/NAK
5.547626110000000,178,N,y,Write,ACK
5.547860560000000,179,N,=,Write,ACK
5.548090070000000,180,N,9,Write,ACK
5.548329530000000,182,N,m,Write,Missing ACK/NAK
5.548558850000000,183,N,i,Write,NAK
5.548793300000000,184,N,],Write,ACK
5.549022800000000,185,N,Y,Write,NAK
5.549262190000000,186,N,},Write,NAK
5.549491580000000,187,N,y,Write,NAK
5.549726030000000,188,N,-,Write,ACK
5.549955540000000,189,N,),Write,NAK
5.550194980000000,190,N,m,Write,ACK
5.550424500000000,191,N,i,Write,NAK
5.550659010000000,192,N,'237',Write,NAK
5.550888390000000,193,N,'233',Write,ACK
5.551127840000000,194,N,m,Write,NAK
5.551357350000000,196,N,i,Write,Missing ACK/NAK
5.551596800000000,197,N,'29',Write,NAK
5.551826310000000,199,N,'25',Write,Missing ACK/NAK
5.552065760000000,200,N,m,Write,NAK
5.552295270000000,201,N,i,Write,NAK
5.552529660000000,202,N,'221',Write,NAK
5.552759170000000,203,N,'217',Write,NAK
5.552998610000000,204,N,m,Write,ACK
5.553228130000000,205,N,i,Write,NAK
5.553462570000000,206,N,],Write,ACK
5.553691900000000,207,N,Y,Write,NAK
5.553931350000000,208,N,=,Write,ACK
5.554160860000000,209,N,9,Write,NAK
5.554395310000000,210,N,'173',Write,ACK
5.554624820000000,211,N,'169',Write,NAK
5.554864260000000,212,N,-,Write,ACK
5.555093780000000,213,N,),Write,NAK
5.555328290000000,214,N,\r,Write,NAK
5.555557800000000,215,N,\t,Write,NAK
5.555802180000000,216,N,'204',Write,ACK
5.556031570000000,217,N,'200',Write,ACK
5.556266080000000,218,N,'12',Write,ACK
5.556495470000000,219,N,'8',Write,ACK
5.556745600000000,220,N,-,Write,NAK
5.556974980000000,221,N,),Write,ACK
5.557209500000000,222,N,\r,Write,NAK
5.557439010000000,223,N,\t,Write,NAK
5.557678390000000,225,N,m,Write,Missing ACK/NAK
5.557907780000000,226,N,i,Write,NAK
5.558142160000000,227,N,},Write,NAK
5.558371550000000,228,N,y,Write,NAK
5.558611000000000,229,N,m,Write,NAK
5.558840320000000,231,N,i,Write,Missing ACK/NAK
5.559074830000000,232,N,'253',Write,ACK
5.559304220000000,233,N,'249',Write,NAK
5.559543600000000,234,N,},Write,NAK
5.559778120000000,235,N,y,Write,NAK
5.560012560000000,236,N,m,Write,ACK
5.560242070000000,237,N,i,Write,ACK
5.560481460000000,238,N,},Write,NAK
5.560710850000000,239,N,y,Write,NAK
5.560945300000000,240,N,M,Write,NAK
5.561174810000000,241,N,I,Write,NAK
5.561414250000000,242,N,m,Write,ACK
5.561643770000000,243,N,i,Write,NAK
5.561878150000000,244,N,],Write,NAK
5.562107540000000,245,N,Y,Write,NAK
5.562346990000000,246,N,m,Write,ACK
5.562576500000000,247,N,i,Write,NAK
5.562810890000000,249,N,=,Write,Missing ACK/NAK
5.563040270000000,250,N,9,Write,NAK
5.563279720000000,251,N,m,Write,NAK
5.563509230000000,252,N,i,Write,NAK
5.563743680000000,253,N,'141',Write,NAK
5.563973190000000,254,N,'137',Write,NAK
5.564212570000000,255,N,},Write,ACK
5.564441960000000,256,N,y,Write,NAK
5.564676410000000,257,N,=,Write,NAK
5.564910920000000,258,N,9,Write,NAK
5.565150430000000,259,N,},Write,NAK
5.565379810000000,260,N,y,Write,ACK
5.565614260000000,261,N,M,Write,ACK
5.565843650000000,262,N,I,Write,NAK
5.566083040000000,263,N,m,Write,ACK
5.566312420000000,264,N,i,Write,NAK
5.566546870000000,265,N,'29',Write,NAK
5.566776260000000,266,N,'25',Write,NAK
5.567015640000000,267,N,m,Write,NAK
5.567245020000000,268,N,i,Write,NAK
5.567479480000000,269,N,=,Write,NAK
5.567708990000000,270,N,9,Write,NAK
5.567952120000000,271,N,m,Write,NAK
5.568181510000000,272,N,i,Write,NAK
5.568415900000000,273,N,'189',Write,ACK
5.568645280000000,274,N,'185',Write,NAK
5.568884730000000,275,N,-,Write,NAK
5.569114240000000,276,N,),Write,NAK
5.569348750000000,277,N,\r,Write,NAK
5.569578260000000,278,N,\t,Write,NAK
7.569381050000000,279,N,'12',Write,ACK
7.569610560000000,280,N,'8',Write,ACK
7.569845080000000,281,N,'28',Write,ACK
7.570074590000000,282,N,'24',Write,ACK
7.572323530000000,283,N,'12',Write,ACK
7.572553040000000,284,N,'8',Write,ACK
7.572787550000000,285,N,COMMA,Write,ACK
7.573017060000000,286,N,(,Write,ACK
7.575271130000000,287,N,-,Write,NAK
7.575500640000000,288,N,),Write,NAK
7.575735090000000,289,N,\r,Write,NAK
7.575964470000000,291,N,\t,Write,Missing ACK/NAK
7.576203860000000,292,N,},Write,NAK
7.576433240000000,293,N,y,Write,ACK
7.576667690000000,295,N,\r,Write,Missing ACK/NAK
7.576897080000000,296,N,\t,Write,NAK
7.577136530000000,297,N,m,Write,NAK
7.577366040000000,298,N,i,Write,NAK
7.577600490000000,299,N,'29',Write,NAK
7.577830000000000,300,N,'25',Write,NAK
7.578069380000000,302,N,},Write,Missing ACK/NAK
7.578298770000000,303,N,y,Write,NAK
7.578533220000000,304,N,=,Write,NAK
7.578762540000000,305,N,9,Write,NAK
7.579001930000000,306,N,},Write,NAK
7.579231310000000,307,N,y,Write,ACK
7.579465760000000,309,N,=,Write,Missing ACK/NAK
7.579700270000000,311,N,9,Write,Missing ACK/NAK
7.579939780000000,312,N,},Write,NAK
7.580169170000000,313,N,y,Write,NAK
7.580403550000000,314,N,},Write,ACK
7.580632940000000,315,N,y,Write,NAK
7.580872330000000,316,N,m,Write,NAK
7.581101710000000,318,N,i,Write,Missing ACK/NAK
7.581336220000000,320,N,'253',Write,Missing ACK/NAK
7.581565610000000,321,N,'249',Write,NAK
7.581805120000000,322,N,},Write,NAK
7.582034510000000,323,N,y,Write,NAK
7.582268960000000,324,N,-,Write,ACK
7.582498340000000,325,N,),Write,NAK
7.582739170000000,326,N,m,Write,ACK
7.582968680000000,327,N,i,Write,ACK
7.583203120000000,328,N,M,Write,ACK
7.583432510000000,329,N,I,Write,NAK
7.583671900000000,330,N,=,Write,ACK
7.583901280000000,331,N,9,Write,NAK
7.584135730000000,332,N,'173',Write,NAK
7.584365240000000,333,N,'169',Write,NAK
7.584604690000000,334,N,-,Write,NAK
7.584834200000000,335,N,),Write,NAK
7.585068710000000,336,N,\r,Write,NAK
7.585298220000000,337,N,\t,Write,NAK
7.585537670000000,338,N,-,Write,NAK
7.585767060000000,339,N,),Write,NAK
7.586001500000000,340,N,\r,Write,ACK
7.586230890000000,341,N,\t,Write,NAK
7.586470340000000,342,N,-,Write,NAK
7.586699720000000,343,N,),Write,NAK
7.586934170000000,344,N,\r,Write,ACK
7.587163560000000,345,N,\t,Write,NAK
7.587403010000000,346,N,-,Write,NAK
7.587632390000000,347,N,),Write,ACK
7.587871840000000,348,N,\r,Write,NAK
7.588101230000000,349,N,\t,Write,NAK
7.588340670000000,350,N,M,Write,ACK
7.588570060000000,351,N,I,Write,NAK
7.588804450000000,352,N,},Write,NAK
7.589033960000000,353,N,y,Write,NAK
7.589273410000000,354,N,=,Write,NAK
7.589502920000000,355,N,9,Write,NAK
7.589737430000000,356,N,\r,Write,NAK
7.589966750000000,358,N,\t,Write,Missing ACK/NAK
7.590211200000000,359,N,'204',Write,ACK
7.590440710000000,360,N,'200',Write,ACK
7.590675220000000,361,N,'12',Write,ACK
7.590904610000000,362,N,'8',Write,ACK
7.591149050000000,363,N,},Write,ACK
7.591378440000000,364,N,y,Write,NAK
7.591612890000000,365,N,m,Write,NAK
7.591842400000000,366,N,i,Write,NAK
7.592081780000000,367,N,],Write,ACK
7.592311170000000,368,N,Y,Write,NAK
7.592545620000000,369,N,M,Write,NAK
7.592775010000000,370,N,I,Write,NAK
7.593019390000000,371,N,=,Write,NAK
7.593248780000000,372,N,9,Write,NAK
7.593483220000000,373,N,=,Write,ACK
7.593712740000000,374,N,9,Write,NAK
7.593952120000000,375,N,m,Write,NAK
7.594181510000000,376,N,i,Write,NAK
7.594415960000000,377,N,=,Write,NAK
7.594645470000000,378,N,9,Write,NAK
7.594884920000000,379,N,M,Write,NAK
7.595114430000000,380,N,I,Write,NAK
7.595348880000000,381,N,'141',Write,NAK
7.595578260000000,382,N,'137',Write,ACK
7.595817710000000,383,N,-,Write,NAK
7.596048160000000,384,N,),Write,NAK
7.596282610000000,385,N,'29',Write,NAK
7.596511990000000,386,N,'25',Write,ACK
7.596751440000000,387,N,=,Write,NAK
7.596980950000000,388,N,9,Write,NAK
7.597215340000000,389,N,=,Write,NAK
7.597444720000000,390,N,9,Write,ACK
7.597684110000000,391,N,},Write,NAK
7.597913500000000,392,N,y,Write,ACK
7.598147880000000,393,N,=,Write,NAK
7.598377270000000,394,N,9,Write,NAK
7.598616720000000,395,N,],Write,ACK
7.598846220000000,396,N,Y,Write,NAK
7.599080680000000,397,N,\r,Write,NAK
7.599310060000000,399,N,\t,Write,Missing ACK/NAK
7.599549510000000,400,N,M,Write,NAK
7.599778900000000,401,N,I,Write,NAK
7.600013410000000,402,N,\r,Write,NAK
7.600242730000000,403,N,\t,Write,NAK
7.600482180000000,404,N,-,Write,NAK
7.600711570000000,405,N,),Write,NAK
7.600946010000000,406,N,M,Write,ACK
7.601180520000000,407,N,I,Write,ACK
7.601419970000000,408,N,-,Write,NAK
7.601649360000000,409,N,),Write,NAK
7.601883810000000,410,N,M,Write,NAK
7.602113200000000,411,N,I,Write,ACK
7.602352700000000,413,N,},Write,Missing ACK/NAK
7.602582090000000,414,N,y,Write,NAK
7.602816480000000,415,N,},Write,ACK
7.603045860000000,416,N,y,Write,NAK
7.603285240000000,417,N,=,Write,NAK
7.603514630000000,418,N,9,Write,ACK
7.603749140000000,419,N,\r,Write,ACK
7.603978650000000,420,N,\t,Write,NAK
7.604218040000000,421,N,},Write,NAK
7.604447550000000,423,N,y,Write,Missing ACK/NAK
7.604682000000000,424,N,-,Write,NAK
7.604911390000000,425,N,),Write,NAK
7.605150830000000,426,N,M,Write,ACK
7.605380350000000,427,N,I,Write,NAK
7.605614790000000,428,N,M,Write,ACK
7.605844180000000,429,N,I,Write,NAK
9.605647030000000,430,N,'12',Write,ACK
9.605876540000001,431,N,'8',Write,ACK
9.606111060000000,432,N,'28',Write,ACK
9.606340570000000,433,N,'24',Write,ACK
9.608589510000000,434,N,'12',Write,ACK
9.608824020000000,435,N,'8',Write,ACK
9.609058530000000,436,N,COMMA,Write,ACK
9.609288039999999,437,N,(,Write,ACK
9.611542099999999,438,N,-,Write,ACK
9.611771610000000,439,N,),Write,NAK
9.612006060000001,440,N,\r,Write,ACK
9.612235450000000,441,N,\t,Write,NAK
9.612474900000000,442,N,m,Write,NAK
9.612704409999999,443,N,i,Write,NAK
9.612938919999999,444,N,'189',Write,NAK
9.613168310000001,445,N,'185',Write,NAK
9.613407750000000,446,N,m,Write,ACK
9.613637260000001,447,N,i,Write,ACK
9.613871650000000,448,N,],Write,NAK
9.614101040000000,449,N,Y,Write,NAK
9.614340420000000,451,N,},Write,Missing ACK/NAK
9.614569810000001,452,N,y,Write,NAK
9.614804260000000,453,N,'157',Write,NAK
9.615033580000000,455,N,'153',Write,Missing ACK/NAK
9.615273030000001,456,N,=,Write,NAK
9.615502540000000,457,N,9,Write,NAK
9.615736990000000,458,N,'173',Write,NAK
9.615971500000001,459,N,'169',Write,NAK
9.616210949999999,460,N,-,Write,NAK
9.616440460000000,461,N,),Write,NAK
9.616674970000000,462,N,\r,Write,NAK
9.616904480000001,463,N,\t,Write,NAK
9.617143870000000,464,N,m,Write,ACK
9.617373250000000,466,N,i,Write,Missing ACK/NAK
9.617607700000001,467,N,M,Write,NAK
9.617837090000000,468,N,I,Write,NAK
9.618076479999999,470,N,m,Write,Missing ACK/NAK
9.618305860000000,471,N,i,Write,NAK
9.618540310000000,472,N,],Write,NAK
9.618769820000001,473,N,Y,Write,NAK
9.619009200000001,474,N,m,Write,ACK
9.619238590000000,475,N,i,Write,NAK
9.619473040000001,476,N,],Write,NAK
9.619702550000000,477,N,Y,Write,NAK
9.619941989999999,478,N,m,Write,NAK
9.620171320000001,479,N,i,Write,NAK
9.620405770000000,480,N,M,Write,NAK
9.620635150000000,481,N,I,Write,NAK
9.620874600000000,482,N,m,Write,ACK
9.621109110000001,483,N,i,Write,ACK
9.621343560000000,485,N,'29',Write,Missing ACK/NAK
9.621573079999999,486,N,'25',Write,ACK
9.621812520000001,487,N,=,Write,NAK
9.622042029999999,489,N,9,Write,Missing ACK/NAK
9.622276480000000,490,N,'29',Write,NAK
9.622505990000001,492,N,'25',Write,Missing ACK/NAK
9.622745439999999,493,N,=,Write,NAK
9.622974950000000,494,N,9,Write,NAK
9.623209400000000,495,N,'29',Write,NAK
9.623438910000001,496,N,'25',Write,NAK
9.623678360000000,497,N,=,Write,NAK
9.623907870000000,498,N,9,Write,NAK
9.624144129999999,499,N,=,Write,NAK
9.624373520000001,500,N,9,Write,NAK
9.624612969999999,501,N,=,Write,ACK
9.624842480000000,502,N,9,Write,NAK
9.625076860000000,503,N,},Write,NAK
9.625306370000001,504,N,y,Write,ACK
9.625545819999999,505,N,m,Write,NAK
9.625775330000000,506,N,i,Write,NAK
9.626009780000000,507,N,'29',Write,NAK
9.626239289999999,509,N,'25',Write,Missing ACK/NAK
9.626483739999999,510,N,'204',Write,ACK
9.626713250000000,511,N,'200',Write,ACK
9.626947760000000,512,N,'12',Write,ACK
9.627177150000000,513,N,'8',Write,ACK
9.627421660000000,514,N,m,Write,NAK
9.627651170000000,515,N,i,Write,NAK
9.627885620000001,516,N,-,Write,NAK
9.628114999999999,517,N,),Write,NAK
9.628354390000000,518,N,=,Write,NAK
9.628583770000001,519,N,9,Write,ACK
9.628818280000001,520,N,\r,Write,ACK
9.629047800000000,521,N,\t,Write,NAK
9.629292180000000,522,N,=,Write,NAK
9.629521570000000,523,N,9,Write,NAK
9.629756020000000,524,N,'29',Write,ACK
9.629985400000001,525,N,'25',Write,NAK
9.630224790000000,526,N,=,Write,NAK
9.630454170000000,527,N,9,Write,ACK
9.630688620000001,528,N,-,Write,NAK
9.630918010000000,529,N,),Write,NAK
9.631157460000001,530,N,=,Write,NAK
9.631386780000000,531,N,9,Write,NAK
9.631621290000000,532,N,\r,Write,NAK
9.631850800000000,533,N,\t,Write,NAK
9.632090249999999,534,N,=,Write,NAK
9.632319760000000,535,N,9,Write,NAK
9.632554210000000,536,N,-,Write,NAK
9.632783720000001,537,N,),Write,NAK
9.633023170000000,538,N,-,Write,NAK
9.633252550000000,539,N,),Write,ACK
9.633487000000001,540,N,\r,Write,NAK
9.633716390000000,541,N,\t,Write,NAK
11.633519090000000,542,N,'12',Write,ACK
11.633748470000000,543,N,'8',Write,ACK
11.633982919999999,544,N,'28',Write,ACK
11.634212310000001,545,N,'24',Write,ACK
11.636461250000000,546,N,'12',Write,ACK
11.636690630000000,547,N,'8',Write,ACK
11.636928709999999,548,N,COMMA,Write,ACK
11.637158220000000,549,N,(,Write,ACK
11.639412280000000,550,N,-,Write,ACK
11.639641800000000,551,N,),Write,ACK
11.639876240000000,552,N,\r,Write,ACK
11.640105630000001,553,N,\t,Write,NAK
11.640345079999999,554,N,],Write,NAK
11.640574590000000,555,N,Y,Write,NAK
11.640809040000001,556,N,'29',Write,NAK
11.641038549999999,557,N,'25',Write,NAK
11.641278000000000,558,N,m,Write,NAK
11.641507510000000,559,N,i,Write,NAK
11.641741890000000,561,N,'237',Write,Missing ACK/NAK
11.641971280000000,562,N,'233',Write,NAK
11.642210790000000,563,N,},Write,NAK
11.642440179999999,564,N,y,Write,NAK
11.642674619999999,565,N,=,Write,ACK
11.642904140000001,566,N,9,Write,NAK
11.643143589999999,568,N,-,Write,Missing ACK/NAK
11.643373100000000,569,N,),Write,ACK
11.643607610000000,570,N,\r,Write,NAK
11.643837110000000,571,N,\t,Write,NAK
11.644081500000000,572,N,m,Write,NAK
11.644310890000000,573,N,i,Write,NAK
11.644545400000000,574,N,'253',Write,NAK
11.644774790000000,575,N,'249',Write,ACK
11.645014170000000,576,N,m,Write,NAK
11.645243560000001,577,N,i,Write,NAK
11.645478010000000,578,N,m,Write,ACK
11.645707509999999,579,N,i,Write,NAK
11.645946960000000,580,N,-,Write,ACK
11.646176470000000,581,N,),Write,ACK
11.646410990000000,582,N,\r,Write,NAK
11.646640489999999,583,N,\t,Write,NAK
11.646879880000000,585,N,},Write,Missing ACK/NAK
11.647109270000000,586,N,y,Write,NAK
11.647343720000000,587,N,M,Write,NAK
11.647573230000001,588,N,I,Write,NAK
11.647812679999999,589,N,m,Write,NAK
11.648042190000000,590,N,i,Write,NAK
11.648276640000001,591,N,'141',Write,ACK
11.648506149999999,592,N,'137',Write,NAK
11.648745600000000,593,N,m,Write,ACK
11.648975110000000,594,N,i,Write,NAK
11.649213870000001,595,N,],Write,NAK
11.649443260000000,596,N,Y,Write,ACK
11.649682700000000,597,N,-,Write,NAK
11.649912090000001,598,N,),Write,NAK
11.650146540000000,599,N,\r,Write,NAK
11.650375920000000,601,N,\t,Write,Missing ACK/NAK
11.650615370000001,602,N,m,Write,NAK
11.650844879999999,603,N,i,Write,NAK
11.651079330000000,604,N,M,Write,NAK
11.651308840000000,605,N,I,Write,NAK
11.651548289999999,606,N,m,Write,NAK
11.651777800000000,607,N,i,Write,NAK
11.652012250000000,608,N,'29',Write,NAK
11.652241760000001,609,N,'25',Write,NAK
11.652481140000001,610,N,},Write,ACK
11.652710530000000,611,N,y,Write,NAK
11.652944979999999,612,N,'157',Write,NAK
11.653174490000000,613,N,'153',Write,NAK
11.653418869999999,614,N,'204',Write,ACK
11.653648260000001,615,N,'200',Write,ACK
11.653882769999999,616,N,'12',Write,ACK
11.654112160000000,617,N,'8',Write,ACK
11.654356670000000,618,N,-,Write,NAK
11.654586060000000,619,N,),Write,ACK
11.654820559999999,620,N,\r,Write,ACK
11.655050080000001,621,N,\t,Write,NAK
11.655289470000000,622,N,=,Write,NAK
11.655518850000000,623,N,9,Write,NAK
11.655753349999999,624,N,'253',Write,NAK
11.655982740000001,625,N,'249',Write,ACK
11.656222189999999,627,N,=,Write,Missing ACK/NAK
11.656451519999999,628,N,9,Write,NAK
11.656686029999999,629,N,'253',Write,NAK
11.656915410000000,630,N,'249',Write,ACK
11.657154860000000,631,N,=,Write,NAK
11.657389370000001,633,N,9,Write,Missing ACK/NAK
11.657623879999999,634,N,'253',Write,NAK
11.657853390000000,635,N,'249',Write,ACK
11.658092840000000,636,N,=,Write,NAK
11.658322350000001,637,N,9,Write,ACK
11.658556859999999,638,N,'253',Write,ACK
11.658786370000000,639,N,'249',Write,NAK
11.659025820000000,641,N,=,Write,Missing ACK/NAK
11.659255330000001,642,N,9,Write,ACK
11.659489850000000,643,N,'253',Write,ACK
11.659719360000000,644,N,'249',Write,NAK
11.659958809999999,645,N,=,Write,ACK
11.660188320000000,646,N,9,Write,NAK
11.660422830000000,647,N,'253',Write,NAK
11.660652340000000,648,N,'249',Write,NAK
11.660891790000001,649,N,=,Write,ACK
11.661121300000000,650,N,9,Write,NAK
11.661360000000000,651,N,'253',Write,ACK
11.661589380000001,652,N,'249',Write,NAK
11.661828829999999,653,N,=,Write,NAK
11.662058340000000,654,N,9,Write,NAK
11.662292850000000,655,N,'253',Write,NAK
11.662522360000001,656,N,'249',Write,NAK
11.662761809999999,657,N,=,Write,NAK
11.662991320000000,658,N,9,Write,NAK
11.663225830000000,659,N,'253',Write,NAK
11.663455219999999,660,N,'249',Write,NAK
11.663694599999999,662,N,=,Write,Missing ACK/NAK
11.663923990000001,663,N,9,Write,NAK
11.664158499999999,664,N,'253',Write,NAK
11.664387890000000,665,N,'249',Write,NAK
11.664627270000000,667,N,=,Write,Missing ACK/NAK
11.664856660000000,668,N,9,Write,NAK
11.665091170000000,669,N,'253',Write,NAK
11.665320560000000,670,N,'249',Write,NAK
11.665564939999999,671,N,=,Write,NAK
11.665794330000001,672,N,9,Write,NAK
11.666028839999999,673,N,'253',Write,NAK
11.666258220000000,674,N,'249',Write,ACK
11.666497610000000,675,N,=,Write,NAK
11.666727000000000,676,N,9,Write,ACK
11.666961510000000,677,N,'253',Write,NAK
11.667190890000001,679,N,'249',Write,Missing ACK/NAK
11.667430339999999,680,N,=,Write,NAK
11.667659660000000,681,N,9,Write,ACK
11.667894170000000,682,N,'253',Write,NAK
11.668123560000000,683,N,'249',Write,NAK
11.668363010000000,684,N,-,Write,NAK
11.668592400000000,685,N,),Write,NAK
11.668826839999999,686,N,\r,Write,ACK
11.669056230000001,687,N,\t,Write,NAK
13.668859030000000,688,N,'12',Write,ACK
13.669093540000000,689,N,'8',Write,ACK
13.669328060000000,690,N,'28',Write,ACK
13.669557570000000,691,N,'24',Write,ACK
13.671806510000000,692,N,'12',Write,ACK
13.672035890000000,693,N,'8',Write,ACK
13.672270340000001,694,N,COMMA,Write,ACK
13.672499730000000,695,N,(,Write,ACK
13.674753730000001,696,N,],Write,NAK
13.674983120000000,697,N,Y,Write,NAK
13.675217630000001,698,N,},Write,NAK
13.675447020000000,699,N,y,Write,NAK
13.675686460000000,700,N,m,Write,NAK
13.675915970000000,701,N,i,Write,ACK
13.676150420000001,702,N,'141',Write,NAK
13.676379930000000,703,N,'137',Write,ACK
13.676619380000000,704,N,m,Write,NAK
13.676848890000000,705,N,i,Write,ACK
13.677083339999999,706,N,],Write,NAK
13.677312669999999,707,N,Y,Write,ACK
13.677552120000000,709,N,m,Write,Missing ACK/NAK
13.677781619999999,710,N,i,Write,ACK
13.678016010000000,711,N,'237',Write,NAK
13.678245400000000,712,N,'233',Write,NAK
13.678484839999999,713,N,-,Write,ACK
13.678714350000000,714,N,),Write,ACK
13.678948860000000,715,N,\r,Write,NAK
13.679178380000000,716,N,\t,Write,NAK
13.679417890000000,717,N,},Write,NAK
13.679647270000000,718,N,y,Write,ACK
13.679881659999999,719,N,},Write,NAK
13.680111050000001,720,N,y,Write,NAK
13.680355430000001,721,N,m,Write,NAK
13.680584820000000,722,N,i,Write,NAK
13.680819260000000,723,N,'29',Write,ACK
13.681048649999999,725,N,'25',Write,Missing ACK/NAK
13.681288040000000,726,N,},Write,NAK
13.681517550000001,727,N,y,Write,NAK
13.681751999999999,728,N,=,Write,ACK
13.681981510000000,729,N,9,Write,NAK
13.682220960000000,730,N,-,Write,ACK
13.682450469999999,731,N,),Write,NAK
13.682684979999999,732,N,\r,Write,NAK
13.682914490000000,733,N,\t,Write,NAK
13.683153940000000,734,N,m,Write,NAK
13.683383449999999,735,N,i,Write,NAK
13.683617959999999,736,N,},Write,NAK
13.683847340000000,737,N,y,Write,ACK
13.684086790000000,739,N,m,Write,Missing ACK/NAK
13.684316300000001,740,N,i,Write,ACK
13.684550809999999,741,N,'253',Write,NAK
13.684780330000001,742,N,'249',Write,NAK
13.685019710000001,743,N,},Write,NAK
13.685249100000000,744,N,y,Write,NAK
13.685488480000000,746,N,m,Write,Missing ACK/NAK
13.685717870000000,747,N,i,Write,NAK
13.685957250000000,748,N,},Write,ACK
13.686186640000001,749,N,y,Write,NAK
13.686421090000000,750,N,M,Write,NAK
13.686650600000000,751,N,I,Write,NAK
13.686890050000001,752,N,m,Write,NAK
13.687119559999999,753,N,i,Write,NAK
13.687354010000000,754,N,],Write,NAK
13.687583330000001,755,N,Y,Write,NAK
13.687822779999999,756,N,m,Write,NAK
13.688052290000000,757,N,i,Write,NAK
13.688286740000001,758,N,=,Write,NAK
13.688516249999999,759,N,9,Write,NAK
13.688755640000000,760,N,m,Write,ACK
13.688985020000001,761,N,i,Write,NAK
13.689219469999999,762,N,'141',Write,NAK
13.689448860000001,763,N,'137',Write,NAK
13.689693240000000,764,N,'204',Write,ACK
13.689922630000000,765,N,'200',Write,ACK
13.690157140000000,766,N,'12',Write,ACK
13.690386520000001,767,N,'8',Write,ACK
13.690631030000000,768,N,-,Write,ACK
13.690860420000000,769,N,),Write,NAK
13.691094930000000,770,N,\r,Write,NAK
13.691324440000001,771,N,\t,Write,ACK
13.691563830000000,772,N,m,Write,NAK
13.691793210000000,773,N,i,Write,ACK
13.692027660000001,774,N,m,Write,NAK
13.692257170000000,775,N,i,Write,ACK
13.692496620000000,776,N,m,Write,NAK
13.692725950000000,777,N,i,Write,ACK
13.692960460000000,778,N,'253',Write,NAK
13.693189840000001,779,N,'249',Write,ACK
13.693429230000000,780,N,},Write,NAK
13.693663740000000,781,N,y,Write,NAK
13.693898190000001,782,N,],Write,ACK
13.694127699999999,783,N,Y,Write,NAK
13.694367150000000,784,N,m,Write,ACK
13.694596660000000,785,N,i,Write,NAK
13.694831170000000,786,N,'237',Write,NAK
13.695060550000001,787,N,'233',Write,NAK
13.695300010000000,788,N,m,Write,NAK
13.695529510000000,789,N,i,Write,ACK
13.695763960000001,790,N,M,Write,NAK
13.695993469999999,791,N,I,Write,ACK
13.696232920000000,792,N,m,Write,NAK
13.696462430000000,793,N,i,Write,NAK
13.696696820000000,794,N,],Write,NAK
13.696926200000000,795,N,Y,Write,ACK
13.697165650000001,796,N,m,Write,NAK
13.697395159999999,797,N,i,Write,ACK
13.697629610000000,798,N,M,Write,NAK
13.697859120000000,799,N,I,Write,ACK
13.698098570000001,800,N,=,Write,NAK
13.698328080000000,802,N,9,Write,Missing ACK/NAK
13.698562590000000,804,N,'253',Write,Missing ACK/NAK
13.698797100000000,806,N,'249',Write,Missing ACK/NAK
13.699036550000001,807,N,-,Write,NAK
13.699265940000000,808,N,),Write,NAK
13.699500450000000,809,N,\r,Write,NAK
13.699729960000001,810,N,\t,Write,NAK
15.699532789999999,811,N,'12',Write,ACK
15.699762300000000,812,N,'8',Write,ACK
15.699996810000000,813,N,'28',Write,ACK
15.700226320000001,814,N,'24',Write,ACK
15.702475390000000,815,N,'12',Write,ACK
15.702704779999999,816,N,'8',Write,ACK
15.702939290000000,817,N,COMMA,Write,ACK
15.703168800000000,818,N,(,Write,ACK
15.705422739999999,819,N,},Write,NAK
15.705652120000000,820,N,y,Write,ACK
15.705886630000000,821,N,\r,Write,ACK
15.706116150000000,822,N,\t,Write,ACK
15.706355589999999,823,N,-,Write,ACK
15.706585110000001,824,N,),Write,ACK
15.706819490000001,825,N,'237',Write,NAK
15.707048869999999,826,N,'233',Write,NAK
15.707288260000000,827,N,},Write,NAK
15.707517770000001,828,N,y,Write,ACK
15.707752220000000,829,N,=,Write,NAK
15.707981730000000,831,N,9,Write,Missing ACK/NAK
15.708221180000001,832,N,-,Write,NAK
15.708455689999999,833,N,),Write,NAK
15.708690199999999,834,N,\r,Write,NAK
15.708919720000001,835,N,\t,Write,ACK
15.709159100000001,836,N,},Write,NAK
15.709388490000000,837,N,y,Write,ACK
15.709622939999999,838,N,M,Write,ACK
15.709852440000001,839,N,I,Write,NAK
15.710091889999999,840,N,m,Write,NAK
15.710321400000000,841,N,i,Write,ACK
15.710555850000000,843,N,'141',Write,Missing ACK/NAK
15.710785359999999,844,N,'137',Write,ACK
15.711024810000000,845,N,m,Write,NAK
15.711254320000000,846,N,i,Write,ACK
15.711488709999999,847,N,],Write,NAK
15.711718090000000,848,N,Y,Write,ACK
15.711957540000000,849,N,-,Write,NAK
15.712186930000000,850,N,),Write,NAK
15.712421440000000,851,N,\r,Write,NAK
15.712650760000001,852,N,\t,Write,ACK
15.712890150000000,853,N,},Write,NAK
15.713119539999999,854,N,y,Write,NAK
15.713353980000001,855,N,M,Write,ACK
15.713588489999999,856,N,I,Write,ACK
15.713827940000000,857,N,m,Write,NAK
15.714057450000000,858,N,i,Write,ACK
15.714291899999999,860,N,'157',Write,Missing ACK/NAK
15.714521410000000,862,N,'153',Write,Missing ACK/NAK
15.714760800000001,863,N,m,Write,NAK
15.714990179999999,864,N,i,Write,ACK
15.715224570000000,865,N,'221',Write,NAK
15.715453960000000,866,N,'217',Write,NAK
15.715693340000000,867,N,m,Write,NAK
15.715922730000001,868,N,i,Write,NAK
15.716157180000000,869,N,],Write,NAK
15.716386690000000,870,N,Y,Write,NAK
15.716626140000001,871,N,-,Write,NAK
15.716855649999999,872,N,),Write,NAK
15.717090160000000,873,N,\r,Write,NAK
15.717319670000000,874,N,\t,Write,NAK
15.717559059999999,875,N,},Write,ACK
15.717788560000001,876,N,y,Write,NAK
15.718022950000000,877,N,},Write,NAK
15.718252339999999,878,N,y,Write,NAK
15.718491780000001,879,N,m,Write,ACK
15.718721110000001,880,N,i,Write,NAK
15.718955559999999,881,N,'29',Write,NAK
15.719184940000000,882,N,'25',Write,ACK
15.719424330000001,883,N,},Write,NAK
15.719653720000000,884,N,y,Write,NAK
15.719888100000000,885,N,=,Write,NAK
15.720117490000000,886,N,9,Write,NAK
15.720361940000000,887,N,'204',Write,ACK
15.720591440000000,888,N,'200',Write,ACK
15.720825960000001,889,N,'12',Write,ACK
15.721055470000000,890,N,'8',Write,ACK
15.721299849999999,892,N,-,Write,Missing ACK/NAK
15.721529240000001,893,N,),Write,NAK
15.721768689999999,894,N,\r,Write,NAK
15.721998070000000,896,N,\t,Write,Missing ACK/NAK
15.722237520000000,897,N,=,Write,NAK
15.722467030000001,898,N,9,Write,NAK
15.722701420000000,899,N,'157',Write,NAK
15.722930800000000,900,N,'153',Write,ACK
15.723170250000001,901,N,=,Write,NAK
15.723399770000000,902,N,9,Write,ACK
15.723634210000000,903,N,'173',Write,NAK
15.723863540000000,904,N,'169',Write,NAK
15.724102980000000,905,N,=,Write,NAK
15.724332499999999,906,N,9,Write,ACK
15.724567000000000,907,N,\r,Write,ACK
15.724796520000000,908,N,\t,Write,NAK
15.725035900000000,909,N,=,Write,NAK
15.725265289999999,910,N,9,Write,NAK
15.725499740000000,911,N,m,Write,ACK
15.725729250000001,912,N,i,Write,NAK
15.725968630000001,913,N,=,Write,NAK
15.726198020000000,914,N,9,Write,NAK
15.726432470000001,915,N,'173',Write,NAK
15.726661979999999,916,N,'169',Write,NAK
15.726906359999999,918,N,=,Write,Missing ACK/NAK
15.727135750000000,919,N,9,Write,NAK
15.727370199999999,920,N,],Write,NAK
15.727599710000000,921,N,Y,Write,NAK
15.727839090000000,922,N,=,Write,ACK
15.728068479999999,923,N,9,Write,NAK
15.728303000000000,925,N,\r,Write,Missing ACK/NAK
15.728532500000000,926,N,\t,Write,ACK
15.728771950000001,927,N,-,Write,NAK
15.729001470000000,928,N,),Write,ACK
15.729235970000000,929,N,\r,Write,NAK
15.729465480000000,930,N,\t,Write,NAK
15.729704930000000,931,N,M,Write,NAK
15.729934450000000,932,N,I,Write,ACK
15.730168830000000,933,N,},Write,NAK
15.730398210000001,934,N,y,Write,NAK
15.730637659999999,936,N,M,Write,Missing ACK/NAK
15.730867050000001,937,N,I,Write,NAK
15.731101560000001,938,N,'221',Write,NAK
15.731330950000000,939,N,'217',Write,NAK
15.731570390000000,940,N,],Write,ACK
15.731799909999999,941,N,Y,Write,NAK
15.732034349999999,942,N,M,Write,ACK
15.732263870000001,943,N,I,Write,NAK
15.732503310000000,944,N,-,Write,ACK
15.732732700000000,945,N,),Write,NAK
15.732967090000001,946,N,'189',Write,NAK
15.733196599999999,947,N,'185',Write,NAK
15.733436050000000,948,N,=,Write,ACK
15.733665560000000,949,N,9,Write,NAK
15.733900070000001,950,N,\r,Write,NAK
15.734129390000000,951,N,\t,Write,NAK
15.734368840000000,952,N,=,Write,NAK
15.734598350000001,953,N,9,Write,NAK
15.734832800000000,954,N,'141',Write,NAK
15.735067310000000,955,N,'137',Write,NAK
15.735306760000000,956,N,-,Write,NAK
15.735536140000001,958,N,),Write,Missing ACK/NAK
15.735770660000000,959,N,\r,Write,ACK
15.736000160000000,960,N,\t,Write,ACK
17.735802929999998,961,N,'12',Write,ACK
17.736032320000000,962,N,'8',Write,ACK
17.736266830000002,963,N,'28',Write,ACK
17.736496339999999,964,N,'24',Write,ACK
17.739010220000001,965,N,'12',Write,ACK
17.739239609999998,966,N,'8',Write,ACK
17.739474120000001,967,N,COMMA,Write,ACK
17.739703440000000,968,N,(,Write,ACK
17.741952510000001,969,N,=,Write,NAK
17.742182020000001,970,N,9,Write,NAK
17.742416530000000,971,N,\r,Write,NAK
17.742646050000001,972,N,\t,Write,ACK
17.742885430000001,973,N,=,Write,NAK
17.743114819999999,974,N,9,Write,NAK
17.743349259999999,975,N,'157',Write,ACK
17.743578780000000,976,N,'153',Write,ACK
17.743818220000001,977,N,-,Write,NAK
17.744047739999999,978,N,),Write,ACK
17.744282250000001,979,N,'253',Write,ACK
17.744511630000002,981,N,'249',Write,Missing ACK/NAK
17.744756020000001,982,N,=,Write,NAK
17.744985400000001,983,N,9,Write,NAK
17.745219850000002,984,N,'29',Write,NAK
17.745449239999999,985,N,'25',Write,NAK
17.745688619999999,986,N,=,Write,NAK
17.745918010000000,987,N,9,Write,NAK
17.746152460000001,988,N,'29',Write,NAK
17.746381840000002,989,N,'25',Write,ACK
17.746621290000000,990,N,-,Write,NAK
17.746850800000001,991,N,),Write,NAK
17.747085309999999,993,N,'253',Write,Missing ACK/NAK
17.747314700000000,994,N,'249',Write,NAK
17.747554139999998,995,N,=,Write,NAK
17.747783660000000,996,N,9,Write,NAK
17.748018110000000,997,N,-,Write,NAK
17.748247620000001,998,N,),Write,NAK
17.748487059999999,999,N,=,Write,ACK
17.748719520000002,1000,N,9,Write,ACK
17.748954019999999,1001,N,\r,Write,ACK
17.749183540000001,1002,N,\t,Write,NAK
17.749422979999999,1003,N,-,Write,NAK
17.749652370000000,1004,N,),Write,NAK
17.749886820000000,1005,N,\r,Write,NAK
17.750116210000002,1006,N,\t,Write,NAK
17.750355649999999,1007,N,=,Write,NAK
17.750585160000000,1008,N,9,Write,ACK
17.750819610000001,1010,N,'29',Write,Missing ACK/NAK
17.751049120000001,1011,N,'25',Write,ACK
17.751288570000000,1012,N,=,Write,NAK
17.751518080000000,1014,N,9,Write,Missing ACK/NAK
17.751752589999999,1015,N,\r,Write,ACK
17.751981919999999,1016,N,\t,Write,NAK
17.752221360000000,1017,N,=,Write,NAK
17.752450880000001,1018,N,9,Write,NAK
17.752685320000001,1019,N,'173',Write,NAK
17.752919840000001,1020,N,'169',Write,ACK
17.753159220000001,1021,N,=,Write,NAK
17.753388609999998,1022,N,9,Write,NAK
17.753623059999999,1023,N,M,Write,NAK
17.753852439999999,1024,N,I,Write,NAK
17.754091830000000,1025,N,=,Write,NAK
17.754321210000001,1026,N,9,Write,ACK
17.754555660000001,1027,N,M,Write,NAK
17.754785049999999,1028,N,I,Write,NAK
17.755024429999999,1030,N,=,Write,Missing ACK/NAK
17.755253820000000,1031,N,9,Write,NAK
17.755488270000001,1032,N,'173',Write,NAK
17.755717780000001,1033,N,'169',Write,NAK
17.755957169999999,1034,N,=,Write,ACK
17.756186549999999,1035,N,9,Write,NAK
17.756421000000000,1036,N,],Write,NAK
17.756650510000000,1037,N,Y,Write,NAK
17.756894960000000,1038,N,'204',Write,ACK
17.757124279999999,1039,N,'200',Write,ACK
17.757358790000001,1040,N,'12',Write,ACK
17.757588179999999,1041,N,'8',Write,ACK
17.757872620000001,1042,N,=,Write,NAK
17.758102130000001,1043,N,9,Write,NAK
17.758336640000000,1044,N,\r,Write,NAK
17.758566150000000,1045,N,\t,Write,NAK
17.758805599999999,1046,N,-,Write,NAK
17.759034979999999,1047,N,),Write,ACK
17.759269430000000,1048,N,\r,Write,NAK
17.759498810000000,1049,N,\t,Write,NAK
17.759738270000000,1050,N,-,Write,NAK
17.759967650000000,1052,N,),Write,Missing ACK/NAK
17.760202100000001,1053,N,\r,Write,NAK
17.760431489999998,1054,N,\t,Write,NAK
17.760670930000000,1055,N,-,Write,ACK
17.760900320000001,1056,N,),Write,NAK
17.761139770000000,1057,N,\r,Write,NAK
17.761369160000001,1058,N,\t,Write,ACK
17.761608599999999,1059,N,-,Write,ACK
17.761837990000000,1060,N,),Write,NAK
17.762072440000001,1061,N,\r,Write,NAK
17.762301820000001,1062,N,\t,Write,ACK
17.762541270000000,1063,N,-,Write,NAK
17.762770660000001,1064,N,),Write,NAK
17.763005170000000,1065,N,\r,Write,NAK
17.763234489999999,1067,N,\t,Write,Missing ACK/NAK
17.763473940000001,1068,N,-,Write,NAK
17.763703320000001,1069,N,),Write,NAK
17.763937840000001,1070,N,\r,Write,NAK
17.764170279999998,1071,N,\t,Write,NAK
17.764409730000001,1073,N,-,Write,Missing ACK/NAK
17.764639119999998,1074,N,),Write,NAK
17.764873630000000,1075,N,\r,Write,NAK
17.765103140000001,1076,N,\t,Write,NAK
17.765342520000001,1077,N,=,Write,NAK
17.765571909999998,1078,N,9,Write,ACK
17.765806359999999,1079,N,M,Write,NAK
17.766035750000000,1080,N,I,Write,NAK
17.766275130000000,1082,N,=,Write,Missing ACK/NAK
17.766504520000002,1083,N,9,Write,NAK
17.766738969999999,1084,N,m,Write,NAK
17.766968479999999,1085,N,i,Write,NAK
17.767207859999999,1086,N,=,Write,ACK
17.767437250000000,1087,N,9,Write,NAK
17.767671700000001,1088,N,'29',Write,NAK
17.767901080000001,1089,N,'25',Write,NAK
17.768140530000000,1090,N,=,Write,NAK
17.768369860000000,1091,N,9,Write,NAK
17.768604310000001,1092,N,'29',Write,ACK
17.768833690000001,1094,N,'25',Write,Missing ACK/NAK
17.769073140000000,1095,N,=,Write,NAK
17.769307649999998,1096,N,9,Write,NAK
17.769542160000000,1097,N,},Write,NAK
17.769771550000002,1098,N,y,Write,NAK
17.770010989999999,1099,N,=,Write,ACK
17.770240510000001,1100,N,9,Write,ACK
17.770475009999998,1101,N,},Write,NAK
17.770704400000000,1102,N,y,Write,ACK
17.770943849999998,1103,N,-,Write,NAK
17.771173240000000,1104,N,),Write,NAK
17.771407690000000,1105,N,\r,Write,NAK
17.771637070000001,1107,N,\t,Write,Missing ACK/NAK
22.770782229999998,1108,N,'12',Write,ACK
22.771011619999999,1109,N,'8',Write,ACK
22.771246130000002,1110,N,'28',Write,ACK
22.771480640000000,1111,N,'24',Write,ACK
22.773729639999999,1112,N,'12',Write,ACK
22.773959150000000,1113,N,'8',Write,ACK
22.774193660000002,1114,N,COMMA,Write,ACK
22.774425239999999,1115,N,(,Write,ACK
22.776674239999998,1116,N,=,Write,NAK
22.776903749999999,1118,N,9,Write,Missing ACK/NAK
22.777138260000001,1119,N,\r,Write,ACK
22.777367770000001,1120,N,\t,Write,ACK
22.777612160000000,1121,N,=,Write,NAK
22.777841540000001,1122,N,9,Write,ACK
22.778075990000001,1123,N,'157',Write,ACK
22.778305509999999,1124,N,'153',Write,ACK
22.778544960000001,1125,N,-,Write,NAK
22.778774460000001,1127,N,),Write,Missing ACK/NAK
22.779008970000000,1128,N,'253',Write,ACK
22.779238360000001,1129,N,'249',Write,NAK
22.779477809999999,1130,N,=,Write,NAK
22.779707129999998,1132,N,9,Write,Missing ACK/NAK
22.779941579999999,1133,N,'29',Write,NAK
22.780170960000000,1134,N,'25',Write,NAK
22.780410410000002,1135,N,=,Write,ACK
22.780639919999999,1136,N,9,Write,NAK
22.780874369999999,1137,N,'29',Write,ACK
22.781103890000001,1138,N,'25',Write,NAK
22.781343329999999,1140,N,-,Write,Missing ACK/NAK
22.781572720000000,1141,N,),Write,NAK
22.781807229999998,1142,N,'253',Write,NAK
22.782036739999999,1144,N,'249',Write,Missing ACK/NAK
22.782276190000001,1145,N,=,Write,NAK
22.782505700000002,1146,N,9,Write,NAK
22.782745150000000,1147,N,-,Write,NAK
22.782974660000001,1148,N,),Write,NAK
22.783214109999999,1149,N,=,Write,NAK
22.783443620000000,1150,N,9,Write,NAK
22.783678070000001,1151,N,\r,Write,NAK
22.783907450000001,1152,N,\t,Write,ACK
22.784146900000000,1153,N,-,Write,NAK
22.784376290000001,1154,N,),Write,NAK
22.784610799999999,1155,N,\r,Write,NAK
22.784840119999998,1156,N,\t,Write,NAK
22.785079570000001,1157,N,=,Write,NAK
22.785309080000001,1158,N,9,Write,NAK
22.785543530000002,1159,N,'29',Write,NAK
22.785772919999999,1160,N,'25',Write,ACK
22.786012299999999,1161,N,=,Write,NAK
22.786241690000001,1162,N,9,Write,NAK
22.786476199999999,1163,N,\r,Write,NAK
22.786710580000001,1164,N,\t,Write,ACK
22.786949969999998,1165,N,=,Write,NAK
22.787179479999999,1166,N,9,Write,NAK
22.787413930000000,1167,N,'173',Write,NAK
22.787643440000000,1168,N,'169',Write,NAK
22.787882830000001,1169,N,=,Write,ACK
22.788112210000001,1170,N,9,Write,NAK
22.788346659999998,1171,N,M,Write,NAK
22.788576039999999,1172,N,I,Write,NAK
22.788815430000000,1173,N,=,Write,NAK
22.789044820000001,1174,N,9,Write,NAK
22.789279270000002,1175,N,],Write,NAK
22.789508779999998,1176,N,Y,Write,NAK
22.789748220000000,1177,N,=,Write,ACK
22.789977550000000,1178,N,9,Write,NAK
22.790211990000000,1179,N,'173',Write,NAK
22.790441500000000,1180,N,'169',Write,NAK
22.790680949999999,1181,N,=,Write,ACK
22.790915470000002,1182,N,9,Write,ACK
22.791149850000000,1184,N,],Write,Missing ACK/NAK
22.791379240000001,1185,N,Y,Write,NAK
22.791623680000001,1186,N,'204',Write,ACK
22.791853190000001,1187,N,'200',Write,ACK
22.792087710000001,1188,N,'12',Write,ACK
22.792317220000001,1189,N,'8',Write,ACK
22.792601650000002,1190,N,=,Write,NAK
22.792831039999999,1192,N,9,Write,Missing ACK/NAK
22.793065490000000,1193,N,\r,Write,NAK
22.793294880000001,1194,N,\t,Write,NAK
22.793534330000000,1195,N,-,Write,ACK
22.793763710000000,1197,N,),Write,Missing ACK/NAK
22.794003159999999,1198,N,\r,Write,NAK
22.794232539999999,1199,N,\t,Write,ACK
22.794471990000002,1200,N,-,Write,NAK
22.794701379999999,1201,N,),Write,NAK
22.794935830000000,1202,N,\r,Write,NAK
22.795165210000000,1203,N,\t,Write,ACK
22.795404659999999,1204,N,-,Write,NAK
22.795634050000000,1205,N,),Write,NAK
22.795868559999999,1206,N,\r,Write,NAK
22.796097880000001,1207,N,\t,Write,NAK
22.796337330000000,1208,N,-,Write,NAK
22.796566710000000,1209,N,),Write,NAK
22.796801230000000,1210,N,\r,Write,NAK
22.797030740000000,1211,N,\t,Write,NAK
22.797270180000002,1212,N,-,Write,ACK
22.797499699999999,1213,N,),Write,NAK
22.797734210000002,1214,N,\r,Write,NAK
22.797963719999998,1215,N,\t,Write,NAK
22.798203170000001,1216,N,-,Write,NAK
22.798432680000001,1217,N,),Write,NAK
22.798667190000000,1218,N,\r,Write,NAK
22.798896700000000,1219,N,\t,Write,NAK
22.799140019999999,1221,N,-,Write,Missing ACK/NAK
22.799369410000001,1222,N,),Write,NAK
22.799603919999999,1223,N,\r,Write,NAK
22.799833430000000,1224,N,\t,Write,NAK
22.800072810000000,1225,N,=,Write,NAK
22.800302200000001,1227,N,9,Write,Missing ACK/NAK
22.800536650000002,1228,N,'29',Write,NAK
22.800766039999999,1229,N,'25',Write,NAK
22.801005490000001,1230,N,=,Write,ACK
22.801234810000000,1231,N,9,Write,NAK
22.801469319999999,1232,N,\r,Write,NAK
22.801698829999999,1233,N,\t,Write,NAK
22.801938280000002,1234,N,=,Write,NAK
22.802172790000000,1235,N,9,Write,NAK
22.802407299999999,1236,N,},Write,NAK
22.802636679999999,1237,N,y,Write,NAK
22.802876130000001,1238,N,=,Write,NAK
22.803105639999998,1239,N,9,Write,ACK
22.803340030000001,1240,N,=,Write,NAK
22.803569419999999,1241,N,9,Write,NAK
22.803808870000001,1242,N,=,Write,ACK
22.804038370000001,1243,N,9,Write,NAK
22.804272820000001,1244,N,\r,Write,ACK
22.804502209999999,1245,N,\t,Write,NAK
22.804741660000001,1246,N,=,Write,NAK
22.804971170000002,1247,N,9,Write,NAK
22.805205560000001,1248,N,},Write,ACK
22.805435070000001,1249,N,y,Write,NAK
22.805674520000000,1250,N,-,Write,ACK
22.805903900000001,1251,N,),Write,NAK
22.806138409999999,1253,N,\r,Write,Missing ACK/NAK
22.806367739999999,1254,N,\t,Write,NAK
27.805517980000001,1255,N,'12',Write,ACK
27.805747499999999,1256,N,'8',Write,ACK
27.805982010000001,1257,N,'28',Write,ACK
27.806211520000002,1258,N,'24',Write,ACK
27.808460520000001,1259,N,'12',Write,ACK
27.808690030000001,1260,N,'8',Write,ACK
27.808924540000000,1261,N,COMMA,Write,ACK
27.809154060000001,1262,N,(,Write,ACK
27.811403060000000,1263,N,=,Write,NAK
27.811632450000001,1264,N,9,Write,ACK
27.811866960000000,1265,N,\r,Write,NAK
27.812096470000000,1266,N,\t,Write,NAK
27.812335919999999,1267,N,=,Write,ACK
27.812565240000001,1268,N,9,Write,NAK
27.812799689999999,1269,N,'157',Write,NAK
27.813029199999999,1270,N,'153',Write,NAK
27.813268650000001,1271,N,-,Write,NAK
27.813498030000002,1273,N,),Write,Missing ACK/NAK
27.813732540000000,1275,N,'253',Write,Missing ACK/NAK
27.813962060000001,1276,N,'249',Write,ACK
27.814201499999999,1277,N,=,Write,NAK
27.814431020000001,1279,N,9,Write,Missing ACK/NAK
27.814665460000001,1280,N,'29',Write,NAK
27.814894970000001,1281,N,'25',Write,ACK
27.815134420000000,1282,N,=,Write,NAK
27.815363930000000,1284,N,9,Write,Missing ACK/NAK
27.815603379999999,1285,N,'29',Write,NAK
27.815832889999999,1286,N,'25',Write,NAK
27.816072340000002,1287,N,-,Write,NAK
27.816301729999999,1288,N,),Write,ACK
27.816536240000001,1289,N,'253',Write,NAK
27.816765749999998,1290,N,'249',Write,NAK
27.817005190000000,1291,N,=,Write,ACK
27.817234710000001,1292,N,9,Write,ACK
27.817469150000001,1293,N,-,Write,ACK
27.817698660000001,1294,N,),Write,ACK
27.817938110000000,1295,N,=,Write,NAK
27.818167620000001,1296,N,9,Write,ACK
27.818402140000000,1297,N,\r,Write,ACK
27.818631650000000,1298,N,\t,Write,NAK
27.818871099999999,1299,N,-,Write,ACK
27.819100610000000,1300,N,),Write,NAK
27.819335120000002,1301,N,\r,Write,NAK
27.819564629999999,1302,N,\t,Write,NAK
27.819804009999999,1304,N,=,Write,Missing ACK/NAK
27.820033400000000,1305,N,9,Write,NAK
27.820267850000000,1306,N,'29',Write,NAK
27.820497230000001,1307,N,'25',Write,ACK
27.820741620000000,1308,N,=,Write,NAK
27.820971000000000,1309,N,9,Write,ACK
27.821205509999999,1310,N,\r,Write,ACK
27.821435030000000,1311,N,\t,Write,NAK
27.821674410000000,1312,N,=,Write,NAK
27.821903800000001,1313,N,9,Write,NAK
27.822138249999998,1314,N,'173',Write,NAK
27.822367759999999,1315,N,'169',Write,NAK
27.822607210000001,1316,N,=,Write,ACK
27.822836530000000,1317,N,9,Write,NAK
27.823070980000001,1318,N,M,Write,NAK
27.823300360000001,1319,N,I,Write,ACK
27.823539810000000,1320,N,=,Write,NAK
27.823772259999998,1321,N,9,Write,NAK
27.824006709999999,1322,N,m,Write,NAK
27.824236220000000,1323,N,i,Write,NAK
27.824475670000002,1324,N,=,Write,ACK
27.824705179999999,1325,N,9,Write,NAK
27.824939560000001,1326,N,'173',Write,ACK
27.825168949999998,1327,N,'169',Write,NAK
27.825408400000001,1328,N,=,Write,NAK
27.825637910000001,1329,N,9,Write,NAK
27.825872300000000,1330,N,],Write,NAK
27.826101680000001,1332,N,Y,Write,Missing ACK/NAK
27.826346130000001,1333,N,'204',Write,ACK
27.826575640000001,1334,N,'200',Write,ACK
27.826810150000000,1335,N,'12',Write,ACK
27.827039660000001,1336,N,'8',Write,ACK
27.827324099999998,1337,N,=,Write,NAK
27.827553479999999,1338,N,9,Write,NAK
27.827787930000000,1339,N,\r,Write,ACK
27.828017320000001,1340,N,\t,Write,NAK
27.828256769999999,1341,N,-,Write,NAK
27.828486150000000,1342,N,),Write,ACK
27.828720669999999,1343,N,\r,Write,ACK
27.828949990000002,1344,N,\t,Write,NAK
27.829189440000000,1345,N,-,Write,NAK
27.829418830000002,1346,N,),Write,ACK
27.829653329999999,1348,N,\r,Write,Missing ACK/NAK
27.829882840000000,1349,N,\t,Write,ACK
27.830122299999999,1350,N,-,Write,NAK
27.830351799999999,1351,N,),Write,ACK
27.830586310000001,1352,N,\r,Write,ACK
27.830815829999999,1353,N,\t,Write,NAK
27.831055270000000,1354,N,-,Write,ACK
27.831284780000001,1355,N,),Write,ACK
27.831519300000000,1356,N,\r,Write,NAK
27.831748810000001,1357,N,\t,Write,NAK
27.831993260000001,1358,N,-,Write,ACK
27.832222770000001,1359,N,),Write,NAK
27.832457280000000,1360,N,\r,Write,ACK
27.832686780000000,1361,N,\t,Write,NAK
27.832926230000002,1362,N,-,Write,ACK
27.833155750000000,1363,N,),Write,NAK
27.833390260000002,1364,N,\r,Write,NAK
27.833619769999999,1365,N,\t,Write,NAK
27.833859220000001,1366,N,-,Write,NAK
27.834088730000001,1367,N,),Write,NAK
27.834323240000000,1368,N,\r,Write,NAK
27.834552750000000,1369,N,\t,Write,NAK
27.834792199999999,1370,N,=,Write,NAK
27.835021709999999,1371,N,9,Write,NAK
27.835256160000000,1372,N,-,Write,ACK
27.835485670000001,1373,N,),Write,NAK
27.835725119999999,1374,N,=,Write,ACK
27.835954630000000,1375,N,9,Write,NAK
27.836189009999998,1376,N,=,Write,NAK
27.836418399999999,1377,N,9,Write,NAK
27.836657850000002,1378,N,=,Write,NAK
27.836887359999999,1379,N,9,Write,NAK
27.837126120000001,1380,N,=,Write,NAK
27.837355509999998,1381,N,9,Write,ACK
27.837594950000000,1382,N,=,Write,NAK
27.837824470000001,1383,N,9,Write,ACK
27.838058849999999,1384,N,},Write,NAK
27.838288360000000,1385,N,y,Write,NAK
27.838527809999999,1386,N,=,Write,NAK
27.838757319999999,1387,N,9,Write,NAK
27.838991770000000,1388,N,'157',Write,NAK
27.839221089999999,1390,N,'153',Write,Missing ACK/NAK
27.839460540000001,1391,N,=,Write,NAK
27.839690050000002,1392,N,9,Write,NAK
27.839924560000000,1393,N,\r,Write,NAK
27.840154070000001,1394,N,\t,Write,ACK
27.840393519999999,1395,N,-,Write,NAK
27.840623030000000,1396,N,),Write,NAK
27.840857539999998,1397,N,\r,Write,NAK
27.841087060000000,1398,N,\t,Write,ACK
32.840231950000003,1399,N,'12',Write,ACK
32.840461329999997,1400,N,'8',Write,ACK
32.840695840000002,1401,N,'28',Write,ACK
32.840925349999999,1402,N,'24',Write,ACK
32.843174359999999,1403,N,'12',Write,ACK
32.843403870000003,1404,N,'8',Write,ACK
32.843638380000002,1405,N,COMMA,Write,ACK
32.843867889999999,1406,N,(,Write,ACK
32.846116960000003,1407,N,=,Write,NAK
32.846346470000000,1408,N,9,Write,NAK
32.846580920000001,1409,N,\r,Write,NAK
32.846810300000001,1411,N,\t,Write,Missing ACK/NAK
32.847049749999996,1412,N,=,Write,NAK
32.847279260000001,1414,N,9,Write,Missing ACK/NAK
32.847513650000003,1415,N,'157',Write,NAK
32.847743039999997,1416,N,'153',Write,ACK
32.847982479999999,1417,N,-,Write,NAK
32.848211870000000,1418,N,),Write,NAK
32.848446379999999,1419,N,'253',Write,NAK
32.848675890000003,1420,N,'249',Write,NAK
32.848915339999998,1421,N,=,Write,NAK
32.849144850000002,1422,N,9,Write,NAK
32.849383480000000,1423,N,'29',Write,ACK
32.849612870000001,1424,N,'25',Write,NAK
32.849852319999997,1425,N,=,Write,NAK
32.850081830000001,1426,N,9,Write,NAK
32.850316280000001,1427,N,'29',Write,NAK
32.850545789999998,1428,N,'25',Write,NAK
32.850785240000000,1429,N,-,Write,NAK
32.851014620000001,1431,N,),Write,Missing ACK/NAK
32.851249129999999,1432,N,'253',Write,ACK
32.851478520000001,1433,N,'249',Write,NAK
32.851717899999997,1434,N,=,Write,ACK
32.851947289999998,1435,N,9,Write,NAK
32.852181739999999,1436,N,-,Write,NAK
32.852411130000000,1437,N,),Write,NAK
32.852650509999997,1438,N,=,Write,NAK
32.852879899999998,1439,N,9,Write,NAK
32.853114410000003,1440,N,\r,Write,NAK
32.853343920000000,1441,N,\t,Write,NAK
32.853588360000003,1442,N,-,Write,NAK
32.853817880000001,1443,N,),Write,NAK
32.854052390000000,1444,N,\r,Write,NAK
32.854281899999997,1445,N,\t,Write,NAK
32.854521290000001,1446,N,=,Write,ACK
32.854750670000001,1447,N,9,Write,NAK
32.854985120000002,1448,N,'29',Write,NAK
32.855214510000003,1449,N,'25',Write,NAK
32.855453949999998,1450,N,=,Write,ACK
32.855683280000001,1451,N,9,Write,NAK
32.855917789999999,1452,N,\r,Write,NAK
32.856147300000003,1453,N,\t,Write,NAK
32.856386739999998,1454,N,=,Write,NAK
32.856616260000003,1455,N,9,Write,NAK
32.856850639999998,1456,N,'173',Write,ACK
32.857080029999999,1457,N,'169',Write,NAK
32.857319480000001,1458,N,=,Write,NAK
32.857548989999998,1459,N,9,Write,NAK
32.857783439999999,1460,N,M,Write,NAK
32.858012950000003,1461,N,I,Write,NAK
32.858252389999997,1462,N,=,Write,NAK
32.858481910000002,1463,N,9,Write,NAK
32.858721420000002,1464,N,},Write,NAK
32.858950800000002,1465,N,y,Write,ACK
32.859190249999997,1467,N,=,Write,Missing ACK/NAK
32.859419760000002,1468,N,9,Write,ACK
32.859654149999997,1469,N,'173',Write,NAK
32.859883539999998,1470,N,'169',Write,NAK
32.860122980000000,1471,N,=,Write,NAK
32.860352499999998,1472,N,9,Write,ACK
32.860586939999997,1474,N,],Write,Missing ACK/NAK
32.860816270000001,1475,N,Y,Write,NAK
32.861060709999997,1476,N,'204',Write,ACK
32.861290220000001,1477,N,'200',Write,ACK
32.861524740000000,1478,N,'12',Write,ACK
32.861754120000001,1479,N,'8',Write,ACK
32.862038560000002,1480,N,=,Write,NAK
32.862268069999999,1481,N,9,Write,NAK
32.862502579999997,1482,N,\r,Write,NAK
32.862732090000002,1483,N,\t,Write,ACK
32.862971539999997,1484,N,-,Write,NAK
32.863201050000001,1486,N,),Write,Missing ACK/NAK
32.863435559999999,1487,N,\r,Write,NAK
32.863665070000003,1488,N,\t,Write,ACK
32.863904519999998,1489,N,-,Write,NAK
32.864134040000003,1491,N,),Write,Missing ACK/NAK
32.864368540000001,1493,N,\r,Write,Missing ACK/NAK
32.864598059999999,1494,N,\t,Write,ACK
32.864837500000000,1495,N,-,Write,NAK
32.865067009999997,1497,N,),Write,Missing ACK/NAK
32.865301530000004,1498,N,\r,Write,ACK
32.865531040000000,1499,N,\t,Write,ACK
32.865770490000003,1500,N,-,Write,ACK
32.865999989999999,1501,N,),Write,ACK
32.866234509999998,1502,N,\r,Write,ACK
32.866464020000002,1503,N,\t,Write,NAK
32.866703459999997,1504,N,-,Write,ACK
32.866932970000001,1505,N,),Write,NAK
32.867167490000000,1506,N,\r,Write,NAK
32.867396999999997,1507,N,\t,Write,NAK
32.867636439999998,1508,N,-,Write,NAK
32.867865830000000,1510,N,),Write,Missing ACK/NAK
32.868100280000000,1511,N,\r,Write,NAK
32.868329670000001,1512,N,\t,Write,NAK
32.868569110000003,1513,N,-,Write,ACK
32.868798499999997,1514,N,),Write,NAK
32.869032949999998,1515,N,\r,Write,NAK
32.869262339999999,1516,N,\t,Write,NAK
32.869501780000000,1517,N,=,Write,ACK
32.869731289999997,1518,N,9,Write,NAK
32.869970799999997,1519,N,},Write,ACK
32.870200189999998,1520,N,y,Write,NAK
32.870439640000001,1521,N,=,Write,NAK
32.870669149999998,1522,N,9,Write,NAK
32.870903599999998,1523,N,-,Write,NAK
32.871133110000002,1524,N,),Write,NAK
32.871372559999998,1525,N,=,Write,NAK
32.871602070000002,1526,N,9,Write,NAK
32.871836520000002,1527,N,-,Write,ACK
32.872066029999999,1528,N,),Write,NAK
32.872305480000001,1529,N,=,Write,ACK
32.872534989999998,1530,N,9,Write,NAK
32.872769429999998,1531,N,-,Write,ACK
32.872998819999999,1532,N,),Write,NAK
32.873238209999997,1533,N,=,Write,NAK
32.873467589999997,1535,N,9,Write,Missing ACK/NAK
32.873701980000000,1536,N,},Write,NAK
32.873931370000001,1537,N,y,Write,NAK
32.874170749999998,1538,N,=,Write,NAK
32.874400139999999,1539,N,9,Write,NAK
32.874634520000001,1540,N,},Write,NAK
32.874863910000002,1541,N,y,Write,NAK
32.875108349999998,1542,N,-,Write,ACK
32.875337870000003,1543,N,),Write,NAK
32.875572380000001,1544,N,\r,Write,NAK
32.875801889999998,1545,N,\t,Write,NAK
